#Time       v(vin)     i(C2)      v(v2)      v(vout)    i(R3)      i(R2)      pd(R3)     pd(R2)    
 0.         1.5E+3     0.         0.         0.         0.         1.5E-9     0.         1.125E-15 
 500.E-9    1.5E+3     16.E-21    101.6E-12  0.         0.         1.4998E-9  0.         1.125E-15 
 1.E-6      1.5E+3     18.E-21    108.5E-12  0.         0.         1.4998E-9  0.         1.125E-15 
 1.5E-6     1.5E+3     17.E-21    108.5E-12  0.         0.         1.4998E-9  0.         1.125E-15 
 2.E-6      1.5E+3     17.E-21    108.5E-12  0.         0.         1.4998E-9  0.         1.125E-15 
 2.5E-6     1.5E+3     17.E-21    108.5E-12  0.         0.         1.4998E-9  0.         1.125E-15 
 3.E-6      1.5E+3     17.E-21    108.5E-12  0.         0.         1.4998E-9  0.         1.125E-15 
 3.5E-6     1.5E+3     17.E-21    108.5E-12  0.         0.         1.4998E-9  0.         1.125E-15 
 4.E-6      1.5E+3     17.E-21    108.5E-12  0.         0.         1.4998E-9  0.         1.125E-15 
 4.5E-6     1.5E+3     17.E-21    108.5E-12  0.         0.         1.4998E-9  0.         1.125E-15 
 5.E-6     -1.5E+3    -16.69E-12 -26.241    -417.2E-12 -13.91E-15 -5.6428     0.         15.921E+3 
 5.5E-6    -1.5E+3    -16.66E-12 -24.018    -1.2508E-9 -41.69E-15 -5.1117     0.         13.065E+3 
 6.E-6     -1.5E+3    -16.63E-12 -22.004    -2.083E-9  -69.43E-15 -4.6308     0.         10.722E+3 
 6.5E-6    -1.5E+3    -16.6E-12  -20.179    -2.9138E-9 -97.13E-15 -4.1951     0.         8.7996E+3 
 7.E-6     -1.5E+3    -16.58E-12 -18.524    -3.7433E-9 -124.8E-15 -3.8003     0.         7.221E+3  
 7.5E-6    -1.5E+3    -16.55E-12 -17.023    -4.5713E-9 -152.4E-15 -3.4426     1.E-21     5.9256E+3 
 8.E-6     -1.5E+3    -16.52E-12 -15.663    -5.398E-9  -179.9E-15 -3.1185     1.E-21     4.8626E+3 
 8.5E-6    -1.5E+3    -16.49E-12 -14.43     -6.2234E-9 -207.4E-15 -2.825      1.E-21     3.9903E+3 
 9.E-6     -1.5E+3    -16.47E-12 -13.312    -7.0473E-9 -234.9E-15 -2.5591     2.E-21     3.2744E+3 
 9.5E-6    -1.5E+3    -16.44E-12 -12.299    -7.8699E-9 -262.3E-15 -2.3182     2.E-21     2.687E+3  
 10.E-6     1.5E+3     3.8103     18.566     372.57E-6  12.419E-9  3.8103     4.627E-12  7.2591E+3 
 10.5E-6    1.5E+3     3.1214     188.53     172.83     0.005761   3.1271     0.99568    4.8894E+3 
 11.E-6     1.5E+3     2.5551     328.08     314.74     0.010491   2.5656     3.3021     3.2912E+3 
 11.5E-6    1.5E+3     2.0911     442.3      430.9      0.014363   2.1055     6.1891     2.2165E+3 
 12.E-6     1.5E+3     1.7108     535.76     525.95     0.017532   1.7284     9.2207     1.4936E+3 
 12.5E-6    1.5E+3     1.3992     612.2      603.7      0.020123   1.4193     12.148     1.0073E+3 
 13.E-6     1.5E+3     1.1438     674.7      667.27     0.022242   1.1661     14.842     679.87    
 13.5E-6    1.5E+3     0.93455    725.78     719.23     0.023974   0.95853    17.243     459.39    
 14.E-6     1.5E+3     0.76305    767.49     761.67     0.025389   0.78844    19.338     310.82    
 14.5E-6    1.5E+3     0.6225     801.53     796.31     0.026544   0.64904    21.137     210.63    
 15.E-6    -1.5E+3    -0.02704   -17.479     811.2      0.02704   -3.551      21.935     6.305E+3  
 15.5E-6   -1.5E+3    -0.026995  -16.077     809.85     0.026995  -3.217      21.862     5.1745E+3 
 16.E-6    -1.5E+3    -0.02695   -14.805     808.5      0.02695   -2.9142     21.789     4.2462E+3 
 16.5E-6   -1.5E+3    -0.026905  -13.652     807.15     0.026905  -2.6399     21.717     3.4845E+3 
 17.E-6    -1.5E+3    -0.02686   -12.607     805.81     0.02686   -2.3914     21.644     2.8594E+3 
 17.5E-6   -1.5E+3    -0.026816  -11.659     804.47     0.026816  -2.1663     21.572     2.3464E+3 
 18.E-6    -1.5E+3    -0.026771  -10.799     803.13     0.026771  -1.9624     21.5       1.9255E+3 
 18.5E-6   -1.5E+3    -0.026726  -10.02      801.79     0.026726  -1.7777     21.429     1.5801E+3 
 19.E-6    -1.5E+3    -0.026682  -9.3124     800.46     0.026682  -1.6104     21.358     1.2967E+3 
 19.5E-6   -1.5E+3    -0.026637  -8.6708     799.12     0.026637  -1.4588     21.287     1.0641E+3 
 20.E-6    -1.5E+3    -0.026593  -8.0886     797.79     0.026593  -1.3215     21.216     873.19    
 20.5E-6    1.5E+3     2.7805     881.       866.64     0.028888   2.8094     25.035     3.9463E+3 
 21.E-6     1.5E+3     2.2753     1.0049E+3  992.67     0.033089   2.3084     32.847     2.6643E+3 
 21.5E-6    1.5E+3     1.86       1.1066E+3  1.0961E+3  0.036535   1.8965     40.044     1.7983E+3 
 22.E-6     1.5E+3     1.5196     1.1896E+3  1.1805E+3  0.039351   1.5589     46.456     1.2152E+3 
 22.5E-6    1.5E+3     1.2407     1.2575E+3  1.2495E+3  0.041652   1.2823     52.046     822.17    
 23.E-6     1.5E+3     1.0121     1.3128E+3  1.3059E+3  0.043529   1.0556     56.843     557.17    
 23.5E-6    1.5E+3     0.82478    1.358E+3   1.3518E+3  0.04506    0.86984    60.911     378.31    
 24.E-6     1.5E+3     0.67127    1.3947E+3  1.3892E+3  0.046306   0.71758    64.328     257.46    
 24.5E-6    1.5E+3     0.54548    1.4246E+3  1.4196E+3  0.04732    0.5928     67.176     175.71    
 25.E-6     1.5E+3     0.4424     1.4488E+3  1.4443E+3  0.048144   0.49054    69.534     120.32    
 25.5E-6   -1.5E+3    -0.048472  -12.958     1.4542E+3  0.048472  -2.4748     70.485     3.0623E+3 
 26.E-6    -1.5E+3    -0.048391  -11.978     1.4517E+3  0.048391  -2.242      70.251     2.5133E+3 
 26.5E-6   -1.5E+3    -0.04831   -11.088     1.4493E+3  0.04831   -2.031      70.017     2.0624E+3 
 27.E-6    -1.5E+3    -0.04823   -10.282     1.4469E+3  0.04823   -1.8398     69.784     1.6924E+3 
 27.5E-6   -1.5E+3    -0.04815   -9.5503     1.4445E+3  0.04815   -1.6666     69.552     1.3888E+3 
 28.E-6    -1.5E+3    -0.04807   -8.8866     1.4421E+3  0.04807   -1.5098     69.32      1.1397E+3 
 28.5E-6   -1.5E+3    -0.047989  -8.2845     1.4397E+3  0.047989  -1.3677     69.09      935.26    
 29.E-6    -1.5E+3    -0.04791   -7.738      1.4373E+3  0.04791   -1.2389     68.86      767.5     
 29.5E-6   -1.5E+3    -0.04783   -7.2421     1.4349E+3  0.04783   -1.1223     68.631     629.83    
 30.E-6    -1.5E+3    -0.04775   -6.7918     1.4325E+3  0.04775   -1.0167     68.402     516.85    
 30.5E-6    1.5E+3     1.8846     1.4891E+3  1.4784E+3  0.049281   1.9338     72.858     1.8699E+3 
 31.E-6     1.5E+3     1.5395     1.573E+3   1.5638E+3  0.052126   1.5916     81.513     1.2666E+3 
 31.5E-6    1.5E+3     1.2558     1.6417E+3  1.6337E+3  0.054455   1.3103     88.962     858.39    
 32.E-6     1.5E+3     1.0233     1.6977E+3  1.6906E+3  0.056355   1.0797     95.275     582.86    
 32.5E-6    1.5E+3     0.83283    1.7433E+3  1.737E+3   0.057901   0.89073    100.58     396.7     
 33.E-6     1.5E+3     0.67671    1.7804E+3  1.7748E+3  0.059159   0.73587    105.       270.75    
 33.5E-6    1.5E+3     0.54878    1.8105E+3  1.8054E+3  0.060181   0.60896    108.65     185.42    
 34.E-6     1.5E+3     0.44394    1.8348E+3  1.8302E+3  0.061008   0.50495    111.66     127.49    
 34.5E-6    1.5E+3     0.35803    1.8545E+3  1.8503E+3  0.061676   0.41971    114.12     88.078    
 35.E-6     1.5E+3     0.28763    1.8703E+3  1.8664E+3  0.062214   0.34985    116.12     61.196    
 35.5E-6   -1.5E+3    -0.062402  -10.146     1.8721E+3  0.062402  -1.8077     116.82     1.6338E+3 
 36.E-6    -1.5E+3    -0.062298  -9.4276     1.8689E+3  0.062298  -1.6376     116.43     1.3409E+3 
 36.5E-6   -1.5E+3    -0.062194  -8.7753     1.8658E+3  0.062194  -1.4835     116.04     1.1004E+3 
 37.E-6    -1.5E+3    -0.062091  -8.1835     1.8627E+3  0.062091  -1.3439     115.66     902.99    
 37.5E-6   -1.5E+3    -0.061987  -7.6464     1.8596E+3  0.061987  -1.2174     115.27     741.01    
 38.E-6    -1.5E+3    -0.061884  -7.1589     1.8565E+3  0.061884  -1.1028     114.89     608.09    
 38.5E-6   -1.5E+3    -0.061781  -6.7163     1.8534E+3  0.061781  -0.99902    114.51     499.02    
 39.E-6    -1.5E+3    -0.061678  -6.3144     1.8503E+3  0.061678  -0.905      114.13     409.51    
 39.5E-6   -1.5E+3    -0.061575  -5.9494     1.8473E+3  0.061575  -0.81982    113.75     336.06    
 40.E-6    -1.5E+3    -0.061473  -5.6179     1.8442E+3  0.061473  -0.74267    113.37     275.78    
 40.5E-6    1.5E+3     1.3695     1.8854E+3  1.8769E+3  0.062563   1.432      117.42     1.0254E+3 
 41.E-6     1.5E+3     1.1163     1.9463E+3  1.9389E+3  0.064628   1.181      125.3      697.33    
 41.5E-6    1.5E+3     0.90822    1.9961E+3  1.9895E+3  0.066316   0.97454    131.93     474.86    
 42.E-6     1.5E+3     0.73768    2.0365E+3  2.0306E+3  0.067687   0.80537    137.45     324.31    
 42.5E-6    1.5E+3     0.59793    2.0693E+3  2.064E+3   0.0688     0.66673    142.       222.27    
 43.E-6     1.5E+3     0.48341    2.0958E+3  2.091E+3   0.069701   0.55311    145.75     152.97    
 43.5E-6    1.5E+3     0.38957    2.1173E+3  2.1129E+3  0.070429   0.46       148.81     105.8     
 44.E-6     1.5E+3     0.31267    2.1345E+3  2.1304E+3  0.071014   0.38368    151.29     73.605    
 44.5E-6    1.5E+3     0.24965    2.1483E+3  2.1445E+3  0.071483   0.32113    153.29     51.563    
 45.E-6     1.5E+3     0.19801    2.1592E+3  2.1557E+3  0.071856   0.26987    154.9      36.414    
 45.5E-6   -1.5E+3    -0.071961  -8.1488     2.1588E+3  0.071961  -1.3357     155.35     892.04    
 46.E-6    -1.5E+3    -0.071841  -7.6152     2.1552E+3  0.071841  -1.2101     154.83     732.12    
 46.5E-6   -1.5E+3    -0.071721  -7.1306     2.1516E+3  0.071721  -1.0962     154.32     600.79    
 47.E-6    -1.5E+3    -0.071602  -6.6906     2.1481E+3  0.071602  -0.993      153.8      493.03    
 47.5E-6   -1.5E+3    -0.071482  -6.2911     2.1445E+3  0.071482  -0.89955    153.29     404.59    
 48.E-6    -1.5E+3    -0.071363  -5.9283     2.1409E+3  0.071363  -0.81489    152.78     332.02    
 48.5E-6   -1.5E+3    -0.071245  -5.5986     2.1373E+3  0.071245  -0.7382     152.27     272.47    
 49.E-6    -1.5E+3    -0.071126  -5.299      2.1338E+3  0.071126  -0.66873    151.77     223.6     
 49.5E-6   -1.5E+3    -0.071008  -5.0267     2.1302E+3  0.071008  -0.6058     151.26     183.5     
 50.E-6    -1.5E+3    -0.070889  -4.779      2.1267E+3  0.070889  -0.5488     150.76     150.59    
 50.5E-6    1.5E+3     1.0211     2.1575E+3  2.1504E+3  0.071681   1.0928     154.15     597.08    
 51.E-6     1.5E+3     0.83012    2.2029E+3  2.1966E+3  0.073219   0.90334    160.83     408.01    
 51.5E-6    1.5E+3     0.67312    2.2398E+3  2.2342E+3  0.074472   0.74759    166.38     279.44    
 52.E-6     1.5E+3     0.54446    2.2697E+3  2.2646E+3  0.075487   0.61995    170.95     192.17    
 52.5E-6    1.5E+3     0.43903    2.2938E+3  2.2892E+3  0.076306   0.51534    174.68     132.79    
 53.E-6     1.5E+3     0.35263    2.3132E+3  2.309E+3   0.076966   0.4296     177.71     92.278    
 53.5E-6    1.5E+3     0.28184    2.3288E+3  2.3248E+3  0.077495   0.35933    180.16     64.56     
 54.E-6     1.5E+3     0.22383    2.3412E+3  2.3375E+3  0.077916   0.30174    182.13     45.525    
 54.5E-6    1.5E+3     0.17629    2.351E+3   2.3475E+3  0.078249   0.25454    183.69     32.395    
 55.E-6     1.5E+3     0.13734    2.3586E+3  2.3553E+3  0.078511   0.21585    184.92     23.296    
 55.5E-6   -1.5E+3    -0.07856   -6.7582     2.3568E+3  0.07856   -1.0088     185.15     508.88    
 56.E-6    -1.5E+3    -0.078429  -6.3527     2.3529E+3  0.078429  -0.91395    184.53     417.65    
 56.5E-6   -1.5E+3    -0.078298  -5.9842     2.349E+3   0.078298  -0.82793    183.92     342.74    
 57.E-6    -1.5E+3    -0.078168  -5.6495     2.345E+3   0.078168  -0.75002    183.31     281.26    
 57.5E-6   -1.5E+3    -0.078038  -5.3452     2.3411E+3  0.078038  -0.67944    182.7      230.82    
 58.E-6    -1.5E+3    -0.077908  -5.0687     2.3372E+3  0.077908  -0.6155     182.09     189.42    
 58.5E-6   -1.5E+3    -0.077778  -4.8172     2.3333E+3  0.077778  -0.55758    181.48     155.45    
 59.E-6    -1.5E+3    -0.077649  -4.5885     2.3295E+3  0.077649  -0.50511    180.88     127.57    
 59.5E-6   -1.5E+3    -0.077519  -4.3803     2.3256E+3  0.077519  -0.45758    180.28     104.69    
 60.E-6    -1.5E+3    -0.07739   -4.1908     2.3217E+3  0.07739   -0.41453    179.68     85.917    
 60.5E-6    1.5E+3     0.78097    2.3454E+3  2.3393E+3  0.077977   0.85895    182.41     368.9     
 61.E-6     1.5E+3     0.63284    2.38E+3    2.3745E+3  0.079151   0.71199    187.95     253.47    
 61.5E-6    1.5E+3     0.51106    2.4081E+3  2.4031E+3  0.080105   0.59117    192.5      174.74    
 62.E-6     1.5E+3     0.41127    2.4307E+3  2.4262E+3  0.080873   0.49214    196.21     121.1     
 62.5E-6    1.5E+3     0.3295     2.4489E+3  2.4447E+3  0.08149    0.41099    199.22     84.456    
 63.E-6     1.5E+3     0.26249    2.4634E+3  2.4595E+3  0.081984   0.34447    201.64     59.331    
 63.5E-6    1.5E+3     0.20758    2.4749E+3  2.4713E+3  0.082375   0.28996    203.57     42.037    
 64.E-6     1.5E+3     0.16259    2.484E+3   2.4805E+3  0.082684   0.24527    205.1      30.079    
 64.5E-6    1.5E+3     0.12572    2.491E+3   2.4877E+3  0.082924   0.20865    206.29     21.766    
 65.E-6     1.5E+3     0.095514   2.4964E+3  2.4933E+3  0.083109   0.17862    207.21     15.953    
 65.5E-6   -1.5E+3    -0.083119  -5.7912     2.4936E+3  0.083119  -0.78297    207.26     306.52    
 66.E-6    -1.5E+3    -0.08298   -5.4742     2.4894E+3  0.08298   -0.70933    206.57     251.57    
 66.5E-6   -1.5E+3    -0.082842  -5.1859     2.4853E+3  0.082842  -0.64258    205.89     206.45    
 67.E-6    -1.5E+3    -0.082704  -4.9239     2.4811E+3  0.082704  -0.58211    205.2      169.42    
 67.5E-6   -1.5E+3    -0.082567  -4.6855     2.477E+3   0.082567  -0.52733    204.52     139.04    
 68.E-6    -1.5E+3    -0.082429  -4.4686     2.4729E+3  0.082429  -0.47771    203.84     114.1     
 68.5E-6   -1.5E+3    -0.082292  -4.2712     2.4688E+3  0.082292  -0.43276    203.16     93.642    
 69.E-6    -1.5E+3    -0.082155  -4.0914     2.4646E+3  0.082155  -0.39205    202.48     76.85     
 69.5E-6   -1.5E+3    -0.082018  -3.9275     2.4605E+3  0.082018  -0.35516    201.81     63.069    
 70.E-6    -1.5E+3    -0.081881  -3.7782     2.4564E+3  0.081881  -0.32175    201.14     51.761    
 70.5E-6    1.5E+3     0.61512    2.4752E+3  2.4698E+3  0.082326   0.69744    203.33     243.21    
 71.E-6     1.5E+3     0.4966     2.5024E+3  2.4975E+3  0.083249   0.57985    207.91     168.11    
 71.5E-6    1.5E+3     0.39915    2.5244E+3  2.5199E+3  0.083996   0.48314    211.66     116.71    
 72.E-6     1.5E+3     0.31929    2.542E+3   2.5378E+3  0.084595   0.40388    214.69     81.561    
 72.5E-6    1.5E+3     0.25385    2.556E+3   2.5522E+3  0.085072   0.33892    217.12     57.435    
 73.E-6     1.5E+3     0.20023    2.5671E+3  2.5635E+3  0.085451   0.28568    219.05     40.807    
 73.5E-6    1.5E+3     0.15629    2.5758E+3  2.5724E+3  0.085748   0.24204    220.58     29.292    
 74.E-6     1.5E+3     0.12029    2.5826E+3  2.5793E+3  0.085978   0.20627    221.77     21.274    
 74.5E-6    1.5E+3     0.090795   2.5877E+3  2.5846E+3  0.086154   0.17695    222.68     15.655    
 75.E-6     1.5E+3     0.066626   2.5916E+3  2.5886E+3  0.086285   0.15291    223.35     11.691    
 75.5E-6   -1.5E+3    -0.086269  -5.1182     2.5881E+3  0.086269  -0.62691    223.27     196.51    
 76.E-6    -1.5E+3    -0.086125  -4.8624     2.5838E+3  0.086125  -0.56795    222.53     161.28    
 76.5E-6   -1.5E+3    -0.085982  -4.6295     2.5795E+3  0.085982  -0.51451    221.79     132.36    
 77.E-6    -1.5E+3    -0.085839  -4.4177     2.5752E+3  0.085839  -0.46609    221.05     108.62    
 77.5E-6   -1.5E+3    -0.085696  -4.2248     2.5709E+3  0.085696  -0.42224    220.31     89.143    
 78.E-6    -1.5E+3    -0.085553  -4.0491     2.5666E+3  0.085553  -0.38251    219.58     73.158    
 78.5E-6   -1.5E+3    -0.085411  -3.889      2.5623E+3  0.085411  -0.34652    218.85     60.039    
 79.E-6    -1.5E+3    -0.085268  -3.743      2.5581E+3  0.085268  -0.31392    218.12     49.274    
 79.5E-6   -1.5E+3    -0.085126  -3.6099     2.5538E+3  0.085126  -0.28439    217.39     40.44     
 80.E-6    -1.5E+3    -0.084985  -3.4882     2.5495E+3  0.084985  -0.25764    216.67     33.19     
 80.5E-6    1.5E+3     0.50053    2.5649E+3  2.5599E+3  0.085331   0.58586    218.44     171.62    
 81.E-6     1.5E+3     0.40248    2.587E+3   2.5824E+3  0.086081   0.48856    222.3      119.35    
 81.5E-6    1.5E+3     0.32183    2.6047E+3  2.6005E+3  0.086685   0.40852    225.43     83.443    
 82.E-6     1.5E+3     0.25574    2.6189E+3  2.615E+3   0.087166   0.34291    227.94     58.794    
 82.5E-6    1.5E+3     0.20159    2.6301E+3  2.6264E+3  0.087547   0.28914    229.94     41.801    
 83.E-6     1.5E+3     0.15722    2.6388E+3  2.6354E+3  0.087846   0.24507    231.51     30.029    
 83.5E-6    1.5E+3     0.12086    2.6456E+3  2.6423E+3  0.088078   0.20894    232.73     21.828    
 84.E-6     1.5E+3     0.091073   2.6508E+3  2.6476E+3  0.088255   0.17933    233.67     16.079    
 84.5E-6    1.5E+3     0.066665   2.6546E+3  2.6516E+3  0.088386   0.15505    234.36     12.02     
 85.E-6     1.5E+3     0.046668   2.6573E+3  2.6544E+3  0.088481   0.13515    234.86     9.1326    
 85.5E-6   -1.5E+3    -0.088446  -4.6495     2.6534E+3  0.088446  -0.51908    234.68     134.72    
 86.E-6    -1.5E+3    -0.088299  -4.436      2.649E+3   0.088298  -0.47026    233.9      110.57    
 86.5E-6   -1.5E+3    -0.088151  -4.2414     2.6445E+3  0.088151  -0.42602    233.12     90.745    
 87.E-6    -1.5E+3    -0.088005  -4.0643     2.6401E+3  0.088005  -0.38593    232.34     74.472    
 87.5E-6   -1.5E+3    -0.087858  -3.9029     2.6357E+3  0.087858  -0.34962    231.57     61.118    
 88.E-6    -1.5E+3    -0.087712  -3.7557     2.6314E+3  0.087712  -0.31673    230.8      50.159    
 88.5E-6   -1.5E+3    -0.087566  -3.6214     2.627E+3   0.087566  -0.28694    230.03     41.166    
 89.E-6    -1.5E+3    -0.08742   -3.4987     2.6226E+3  0.08742   -0.25995    229.27     33.786    
 89.5E-6   -1.5E+3    -0.087274  -3.3867     2.6182E+3  0.087274  -0.2355     228.5      27.729    
 90.E-6    -1.5E+3    -0.087129  -3.2843     2.6139E+3  0.087129  -0.21335    227.74     22.758    
 90.5E-6    1.5E+3     0.42136    2.6268E+3  2.6222E+3  0.087408   0.50877    229.2      129.42    
 91.E-6     1.5E+3     0.33749    2.6454E+3  2.6411E+3  0.088038   0.42553    232.52     90.537    
 91.5E-6    1.5E+3     0.26844    2.6602E+3  2.6563E+3  0.088543   0.35699    235.2      63.72     
 92.E-6     1.5E+3     0.21187    2.672E+3   2.6683E+3  0.088943   0.30081    237.33     45.243    
 92.5E-6    1.5E+3     0.16551    2.6812E+3  2.6777E+3  0.089258   0.25476    239.01     32.453    
 93.E-6     1.5E+3     0.12752    2.6884E+3  2.6851E+3  0.089502   0.21702    240.32     23.549    
 93.5E-6    1.5E+3     0.096396   2.6938E+3  2.6907E+3  0.089689   0.18608    241.32     17.314    
 94.E-6     1.5E+3     0.070895   2.6979E+3  2.6948E+3  0.089828   0.16072    242.07     12.916    
 94.5E-6    1.5E+3     0.050002   2.7008E+3  2.6979E+3  0.089929   0.13993    242.62     9.7903    
 95.E-6     1.5E+3     0.032885   2.7028E+3  2.6999E+3  0.089998   0.12288    242.99     7.5501    
 95.5E-6   -1.5E+3    -0.08995   -4.323      2.6985E+3  0.08995   -0.44454    242.73     98.81     
 96.E-6    -1.5E+3    -0.089801  -4.1388     2.694E+3   0.089801  -0.40275    241.92     81.105    
 96.5E-6   -1.5E+3    -0.089651  -3.9707     2.6895E+3  0.089651  -0.36486    241.12     66.562    
 97.E-6    -1.5E+3    -0.089502  -3.8176     2.6851E+3  0.089502  -0.33054    240.32     54.627    
 97.5E-6   -1.5E+3    -0.089353  -3.6778     2.6806E+3  0.089353  -0.29944    239.52     44.832    
 98.E-6    -1.5E+3    -0.089204  -3.5503     2.6761E+3  0.089204  -0.27127    238.72     36.794    
 98.5E-6   -1.5E+3    -0.089055  -3.4339     2.6717E+3  0.089055  -0.24576    237.93     30.198    
 99.E-6    -1.5E+3    -0.088907  -3.3274     2.6672E+3  0.088907  -0.22264    237.13     24.785    
